
**** 12/22/21 17:29:11 ******* PSpice Lite (March 2016) ******* ID# 10813 ****

 ** Profile: "SCHEMATIC1-fd"  [ C:\Users\ADMIN\Desktop\bai 5\bai 5-pspicefiles\schematic1\fd.sim ] 


 ****     CIRCUIT DESCRIPTION


******************************************************************************




** Creating circuit file "fd.cir" 
** WARNING: THIS AUTOMATICALLY GENERATED FILE MAY BE OVERWRITTEN BY SUBSEQUENT SIMULATIONS

*Libraries: 
* Profile Libraries :
* Local Libraries :
* From [PSPICE NETLIST] section of C:\Users\ADMIN\AppData\Roaming\SPB_Data\cdssetup\OrCAD_PSpice\17.2.0\PSpice.ini file:
.lib "nomd.lib" 

*Analysis directives: 
.TRAN  0 3.00006 2.99998 
.OPTIONS ADVCONV
.PROBE64 V(alias(*)) I(alias(*)) W(alias(*)) D(alias(*)) NOISE(alias(*)) 
.INC "..\SCHEMATIC1.net" 



**** INCLUDING SCHEMATIC1.net ****
* source BAI 5
V_V1         N00238 0 10Vdc
R_R1         0 N00238  200k TC=0,0 
R_R2         N00219 N00227  50k TC=0,0 
V_V2         N00219 0 5Vdc
L_L1         N00808 0  100mH IC=0.0000714285 
R_R3         N00808 N00227  20k TC=0,0 
X_S1         N00238 N00227 Sw_tClose PARAMS: tClose=2.99999992 ttran=1u
+  Rclosed=0.01 Ropen=100000Meg

**** RESUMING fd.cir ****
.END

**** 12/22/21 17:29:11 ******* PSpice Lite (March 2016) ******* ID# 10813 ****

 ** Profile: "SCHEMATIC1-fd"  [ C:\Users\ADMIN\Desktop\bai 5\bai 5-pspicefiles\schematic1\fd.sim ] 


 ****     Voltage Controlled Switch MODEL PARAMETERS


******************************************************************************




               X_S1.Smod       
         RON     .01         
        ROFF  100.000000E+09 
         VON    1            
        VOFF    0            


**** 12/22/21 17:29:11 ******* PSpice Lite (March 2016) ******* ID# 10813 ****

 ** Profile: "SCHEMATIC1-fd"  [ C:\Users\ADMIN\Desktop\bai 5\bai 5-pspicefiles\schematic1\fd.sim ] 


 ****     INITIAL TRANSIENT SOLUTION       TEMPERATURE =   27.000 DEG C


******************************************************************************



 NODE   VOLTAGE     NODE   VOLTAGE     NODE   VOLTAGE     NODE   VOLTAGE


(N00219)    5.0000 (N00227)    1.4286 (N00238)   10.0000 (N00808) 9.285E-06     

(X_S1.3)    0.0000 




    VOLTAGE SOURCE CURRENTS
    NAME         CURRENT

    V_V1        -5.000E-05
    V_V2        -7.143E-05
    X_S1.V1      0.000E+00

    TOTAL POWER DISSIPATION   8.57E-04  WATTS



          JOB CONCLUDED

**** 12/22/21 17:29:11 ******* PSpice Lite (March 2016) ******* ID# 10813 ****

 ** Profile: "SCHEMATIC1-fd"  [ C:\Users\ADMIN\Desktop\bai 5\bai 5-pspicefiles\schematic1\fd.sim ] 


 ****     JOB STATISTICS SUMMARY


******************************************************************************



  Total job time (using Solver 1)   =         .02
